
T17AC 000:432 SEGGER J-Link V4.80g Log File (0001ms, 0262ms total)
T17AC 000:432 DLL Compiled: Feb 13 2014 20:50:02 (0001ms, 0262ms total)
T17AC 000:432 Logging started @ 2015-07-04 16:48 (0001ms, 0262ms total)
T17AC 000:433 JLINK_SetWarnOutHandler(...) (0000ms, 0262ms total)
T17AC 000:433 JLINK_OpenEx(...)
Firmware: J-Link ARM V8 compiled Nov 25 2013 19:20:08
Hardware: V8.00
S/N: 99999994
Feature(s): RDI,FlashDL,FlashBP,JFlash,GDBFULL  returns O.K. (0262ms, 0524ms total)
T17AC 000:695 JLINK_SetErrorOutHandler(...) (0000ms, 0524ms total)
T17AC 000:695 JLINK_ExecCommand("ProjectFile = "E:\github\RedBull\实验4 串口实验\USER\JLinkSettings.ini"", ...)  returns 0x00 (0001ms, 0525ms total)
T17AC 000:711 JLINK_ExecCommand("Device = STM32F103ZE", ...)Device "STM32F103ZE" selected (512 KB flash, 64 KB RAM).  returns 0x00 (0010ms, 0535ms total)
T17AC 000:721 JLINK_ExecCommand("DisableConnectionTimeout", ...)  returns 0x01 (0000ms, 0535ms total)
T17AC 000:721 JLINK_GetHardwareVersion()  returns 0x13880 (0000ms, 0535ms total)
T17AC 000:721 JLINK_GetDLLVersion()  returns 48007 (0000ms, 0535ms total)
T17AC 000:722 JLINK_GetFirmwareString(...) (0000ms, 0535ms total)
T17AC 000:737 JLINK_GetDLLVersion()  returns 48007 (0000ms, 0535ms total)
T17AC 000:737 JLINK_GetCompileDateTime() (0000ms, 0535ms total)
T17AC 000:739 JLINK_GetFirmwareString(...) (0000ms, 0535ms total)
T17AC 000:740 JLINK_GetHardwareVersion()  returns 0x13880 (0000ms, 0535ms total)
T17AC 000:748 JLINK_TIF_Select(JLINKARM_TIF_SWD)  returns 0x00 (0000ms, 0535ms total)
T17AC 000:748 JLINK_SetSpeed(5000) (0000ms, 0535ms total)
T17AC 000:748 JLINK_GetId() >0x108 TIF>Found SWD-DP with ID 0x1BA01477 >0x0D TIF> >0x28 TIF> >0x0D TIF> >0x28 TIF> >0x0D TIF> >0x21 TIF> >0x0D TIF> >0x28 TIF> >0x0D TIF> >0x28 TIF> >0x0D TIF> >0x28 TIF> >0x0D TIF> >0x21 TIF> >0x0D TIF> >0x21 TIF> >0x0D TIF> >0x28 TIF> >0x0D TIF> >0x21 TIF> >0x0D TIF> >0x21 TIF> >0x108 TIF>Found SWD-DP with ID 0x1BA01477 >0x0D TIF> >0x21 TIF> >0x0D TIF> >0x28 TIF> >0x0D TIF> >0x28 TIF> >0x0D TIF> >0x21 TIF> >0x0D TIF> >0x28 TIF> >0x0D TIF> >0x21 TIF> >0x0D TIF> >0x21 TIF>
 >0x0D TIF> >0x21 TIF> >0x0D TIF> >0x21 TIF> >0x0D TIF> >0x28 TIF> >0x0D TIF> >0x28 TIF> >0x0D TIF> >0x21 TIF> >0x0D TIF> >0x28 TIF> >0x0D TIF> >0x28 TIF> >0x0D TIF> >0x28 TIF> >0x0D TIF> >0x21 TIF> >0x0D TIF> >0x21 TIF> >0x0D TIF> >0x28 TIF> >0x0D TIF> >0x21 TIF> >0x0D TIF> >0x21 TIF>Found Cortex-M3 r1p1, Little endian. -- CPU_WriteMem(4 bytes @ 0xE0002000) -- CPU_ReadMem(4 bytes @ 0xE000EDF0) -- CPU_ReadMem(4 bytes @ 0xE0002000)FPUnit: 6 code (BP) slots and 2 literal slots
 -- CPU_ReadMem(4 bytes @ 0xE000EDFC) -- CPU_ReadMem(4 bytes @ 0xE0001000) -- CPU_WriteMem(4 bytes @ 0xE0001000) -- CPU_ReadMem(4 bytes @ 0xE00FF010)TPIU fitted. -- CPU_ReadMem(4 bytes @ 0xE00FF014)ETM fitted. -- CPU_ReadMem(4 bytes @ 0xE00FF018) >0x0D TIF> >0x21 TIF>  returns 0x1BA01477 (0029ms, 0564ms total)
T17AC 000:777 JLINK_GetDeviceFamily()  returns 3 (0000ms, 0564ms total)
T17AC 000:778 JLINK_ReadMem (0xE00FFFF0, 0x0010 Bytes, ...) -- CPU is running -- CPU_ReadMem(16 bytes @ 0xE00FFFF0) -- Data:  0D 00 00 00 10 00 00 00 05 00 00 00 B1 00 00 00  returns 0x00 (0001ms, 0565ms total)
T17AC 000:779 JLINK_ReadMem (0xE00FFFD0, 0x0020 Bytes, ...) -- CPU is running -- CPU_ReadMem(32 bytes @ 0xE00FFFD0) -- Data:  00 00 00 00 00 00 00 00 00 00 00 00 00 00 00 00 ...  returns 0x00 (0001ms, 0566ms total)
T17AC 000:780 JLINK_ReadMem (0xE00FF000, 0x0018 Bytes, ...) -- CPU is running -- CPU_ReadMem(24 bytes @ 0xE00FF000) -- Data:  03 F0 F0 FF 03 20 F0 FF 03 30 F0 FF 03 10 F0 FF ...  returns 0x00 (0000ms, 0566ms total)
T17AC 000:780 JLINK_ReadMemU32(0xE000ED00, 0x0001 Items, ...) -- CPU is running -- CPU_ReadMem(4 bytes @ 0xE000ED00) -- Data:  31 C2 1F 41  returns 0x01 (0001ms, 0567ms total)
T17AC 000:781 JLINK_SetResetType(JLINKARM_RESET_TYPE_NORMAL)  returns JLINKARM_RESET_TYPE_NORMAL (0000ms, 0567ms total)
T17AC 000:781 JLINK_Reset() -- CPU is running -- CPU_WriteMem(4 bytes @ 0xE000EDF0) -- CPU is running -- CPU_WriteMem(4 bytes @ 0xE000EDFC) >0x35 TIF> -- CPU is running -- CPU_WriteMem(4 bytes @ 0xE000ED0C) -- CPU is running -- CPU_ReadMem(4 bytes @ 0xE000EDF0) -- CPU is running -- CPU_ReadMem(4 bytes @ 0xE000EDF0) -- CPU is running -- CPU_WriteMem(4 bytes @ 0xE000EDF0) -- CPU is running -- CPU_WriteMem(4 bytes @ 0xE000EDFC) -- CPU is running -- CPU_ReadMem(4 bytes @ 0xE000EDF0)
 -- CPU_WriteMem(4 bytes @ 0xE0002000) -- CPU_ReadMem(4 bytes @ 0xE000EDFC) -- CPU_ReadMem(4 bytes @ 0xE0001000) (0016ms, 0583ms total)
T17AC 000:797 JLINK_Halt()  returns 0x00 (0000ms, 0583ms total)
T17AC 000:797 JLINK_IsHalted()  returns TRUE (0000ms, 0583ms total)
T17AC 000:797 JLINK_ReadMemU32(0xE000EDF0, 0x0001 Items, ...) -- CPU_ReadMem(4 bytes @ 0xE000EDF0) -- Data:  03 00 03 00  returns 0x01 (0001ms, 0584ms total)
T17AC 000:798 JLINK_WriteU32(0xE000EDF0, 0xA05F0003) -- CPU_WriteMem(4 bytes @ 0xE000EDF0)  returns 0x00 (0000ms, 0584ms total)
T17AC 000:798 JLINK_WriteU32(0xE000EDFC, 0x01000000) -- CPU_WriteMem(4 bytes @ 0xE000EDFC)  returns 0x00 (0001ms, 0585ms total)
T17AC 000:805 JLINK_GetHWStatus(...)  returns 0x00 (0000ms, 0585ms total)
T17AC 000:809 JLINK_GetNumBPUnits(Type = 0xFFFFFF00)  returns 0x06 (0000ms, 0585ms total)
T17AC 000:809 JLINK_GetNumBPUnits(Type = 0xF0)  returns 0x2000 (0000ms, 0585ms total)
T17AC 000:809 JLINK_GetNumWPUnits()  returns 0x04 (0000ms, 0585ms total)
T17AC 000:815 JLINK_GetSpeed()  returns 0xFA0 (0000ms, 0585ms total)
T17AC 000:818 JLINK_ReadMemU32(0xE000E004, 0x0001 Items, ...) -- CPU_ReadMem(4 bytes @ 0xE000E004) -- Data:  01 00 00 00  returns 0x01 (0000ms, 0585ms total)
T17AC 000:818 JLINK_ReadMemU32(0xE000E004, 0x0001 Items, ...) -- CPU_ReadMem(4 bytes @ 0xE000E004) -- Data:  01 00 00 00  returns 0x01 (0001ms, 0586ms total)
T17AC 000:819 JLINK_WriteMem(0xE0001000, 0x001C Bytes, ...) -- Data:  01 00 00 00 00 00 00 00 00 00 00 00 00 00 00 00 ... -- CPU_WriteMem(28 bytes @ 0xE0001000)  returns 0x1C (0000ms, 0586ms total)
T17AC 000:819 JLINK_ReadMem (0xE0001000, 0x001C Bytes, ...) -- CPU_ReadMem(28 bytes @ 0xE0001000) -- Data:  01 00 00 40 00 00 00 00 00 00 00 00 00 00 00 00 ...  returns 0x00 (0001ms, 0587ms total)
T17AC 000:820 JLINK_Halt()  returns 0x00 (0000ms, 0587ms total)
T17AC 000:820 JLINK_IsHalted()  returns TRUE (0000ms, 0587ms total)
T17AC 000:822 JLINK_WriteMem(0x20000000, 0x0164 Bytes, ...) -- Data:  00 BE 0A E0 0D 78 2D 06 68 40 08 24 40 00 00 D3 ... -- CPU_WriteMem(356 bytes @ 0x20000000)  returns 0x164 (0002ms, 0589ms total)
T17AC 000:824 JLINK_WriteReg(R0, 0x08000000)  returns 0x00 (0000ms, 0589ms total)
T17AC 000:824 JLINK_WriteReg(R1, 0x007A1200)  returns 0x00 (0000ms, 0589ms total)
T17AC 000:824 JLINK_WriteReg(R2, 0x00000001)  returns 0x00 (0000ms, 0589ms total)
T17AC 000:824 JLINK_WriteReg(R3, 0x00000000)  returns 0x00 (0000ms, 0589ms total)
T17AC 000:824 JLINK_WriteReg(R4, 0x00000000)  returns 0x00 (0001ms, 0590ms total)
T17AC 000:825 JLINK_WriteReg(R5, 0x00000000)  returns 0x00 (0000ms, 0590ms total)
T17AC 000:825 JLINK_WriteReg(R6, 0x00000000)  returns 0x00 (0000ms, 0590ms total)
T17AC 000:825 JLINK_WriteReg(R7, 0x00000000)  returns 0x00 (0000ms, 0590ms total)
T17AC 000:825 JLINK_WriteReg(R8, 0x00000000)  returns 0x00 (0000ms, 0590ms total)
T17AC 000:825 JLINK_WriteReg(R9, 0x20000160)  returns 0x00 (0000ms, 0590ms total)
T17AC 000:825 JLINK_WriteReg(R10, 0x00000000)  returns 0x00 (0000ms, 0590ms total)
T17AC 000:825 JLINK_WriteReg(R11, 0x00000000)  returns 0x00 (0000ms, 0590ms total)
T17AC 000:825 JLINK_WriteReg(R12, 0x00000000)  returns 0x00 (0000ms, 0590ms total)
T17AC 000:825 JLINK_WriteReg(R13 (SP), 0x20000800)  returns 0x00 (0000ms, 0590ms total)
T17AC 000:825 JLINK_WriteReg(R14, 0x20000001)  returns 0x00 (0000ms, 0590ms total)
T17AC 000:825 JLINK_WriteReg(R15 (PC), 0x20000038)  returns 0x00 (0000ms, 0590ms total)
T17AC 000:825 JLINK_WriteReg(XPSR, 0x01000000)  returns 0x00 (0000ms, 0590ms total)
T17AC 000:825 JLINK_WriteReg(MSP, 0x20000800)  returns 0x00 (0000ms, 0590ms total)
T17AC 000:825 JLINK_WriteReg(PSP, 0x20000800)  returns 0x00 (0000ms, 0590ms total)
T17AC 000:825 JLINK_WriteReg(CFBP, 0x00000000)  returns 0x00 (0000ms, 0590ms total)
T17AC 000:825 JLINK_SetBPEx(Addr = 0x20000000, Type = 0xFFFFFFF2) -- CPU_ReadMem(2 bytes @ 0x20000000)  returns 0x00000001 (0000ms, 0590ms total)
T17AC 000:825 JLINK_Go() -- CPU_WriteMem(2 bytes @ 0x20000000) -- CPU_WriteMem(4 bytes @ 0xE0002008) -- CPU_WriteMem(4 bytes @ 0xE000200C) -- CPU_WriteMem(4 bytes @ 0xE0002010) -- CPU_WriteMem(4 bytes @ 0xE0002014) -- CPU_WriteMem(4 bytes @ 0xE0002018) -- CPU_WriteMem(4 bytes @ 0xE000201C) -- CPU_WriteMem(4 bytes @ 0xE0001004) (0005ms, 0595ms total)
T17AC 000:831 JLINK_IsHalted() -- CPU_ReadMem(2 bytes @ 0x20000000)  returns TRUE (0002ms, 0598ms total)
T17AC 000:833 JLINK_ReadReg(R15 (PC))  returns 0x20000000 (0000ms, 0596ms total)
T17AC 000:833 JLINK_ClrBPEx(BPHandle = 0x00000001)  returns 0x00 (0000ms, 0596ms total)
T17AC 000:833 JLINK_ReadReg(R0)  returns 0x00000000 (0000ms, 0596ms total)
T17AC 000:833 JLINK_WriteReg(R0, 0x08000000)  returns 0x00 (0001ms, 0597ms total)
T17AC 000:834 JLINK_WriteReg(R1, 0x00000800)  returns 0x00 (0000ms, 0597ms total)
T17AC 000:834 JLINK_WriteReg(R2, 0x000000FF)  returns 0x00 (0000ms, 0597ms total)
T17AC 000:834 JLINK_WriteReg(R3, 0x00000000)  returns 0x00 (0000ms, 0597ms total)
T17AC 000:834 JLINK_WriteReg(R4, 0x00000000)  returns 0x00 (0000ms, 0597ms total)
T17AC 000:834 JLINK_WriteReg(R5, 0x00000000)  returns 0x00 (0000ms, 0597ms total)
T17AC 000:834 JLINK_WriteReg(R6, 0x00000000)  returns 0x00 (0000ms, 0597ms total)
T17AC 000:834 JLINK_WriteReg(R7, 0x00000000)  returns 0x00 (0000ms, 0597ms total)
T17AC 000:834 JLINK_WriteReg(R8, 0x00000000)  returns 0x00 (0000ms, 0597ms total)
T17AC 000:834 JLINK_WriteReg(R9, 0x20000160)  returns 0x00 (0000ms, 0597ms total)
T17AC 000:834 JLINK_WriteReg(R10, 0x00000000)  returns 0x00 (0000ms, 0597ms total)
T17AC 000:834 JLINK_WriteReg(R11, 0x00000000)  returns 0x00 (0000ms, 0597ms total)
T17AC 000:834 JLINK_WriteReg(R12, 0x00000000)  returns 0x00 (0000ms, 0597ms total)
T17AC 000:834 JLINK_WriteReg(R13 (SP), 0x20000800)  returns 0x00 (0000ms, 0597ms total)
T17AC 000:834 JLINK_WriteReg(R14, 0x20000001)  returns 0x00 (0000ms, 0597ms total)
T17AC 000:834 JLINK_WriteReg(R15 (PC), 0x20000020)  returns 0x00 (0000ms, 0597ms total)
T17AC 000:834 JLINK_WriteReg(XPSR, 0x01000000)  returns 0x00 (0000ms, 0597ms total)
T17AC 000:834 JLINK_WriteReg(MSP, 0x20000800)  returns 0x00 (0000ms, 0597ms total)
T17AC 000:834 JLINK_WriteReg(PSP, 0x20000800)  returns 0x00 (0000ms, 0597ms total)
T17AC 000:834 JLINK_WriteReg(CFBP, 0x00000000)  returns 0x00 (0000ms, 0597ms total)
T17AC 000:834 JLINK_SetBPEx(Addr = 0x20000000, Type = 0xFFFFFFF2)  returns 0x00000002 (0001ms, 0598ms total)
T17AC 000:835 JLINK_Go() (0001ms, 0599ms total)
T17AC 000:836 JLINK_IsHalted() -- CPU_ReadMem(2 bytes @ 0x20000000)  returns TRUE (0002ms, 0601ms total)
T17AC 000:838 JLINK_ReadReg(R15 (PC))  returns 0x20000000 (0000ms, 0599ms total)
T17AC 000:838 JLINK_ClrBPEx(BPHandle = 0x00000002)  returns 0x00 (0000ms, 0599ms total)
T17AC 000:838 JLINK_ReadReg(R0)  returns 0x00000001 (0000ms, 0599ms total)
T17AC 000:838 JLINK_WriteReg(R0, 0x08000000)  returns 0x00 (0000ms, 0599ms total)
T17AC 000:838 JLINK_WriteReg(R1, 0x00000800)  returns 0x00 (0000ms, 0599ms total)
T17AC 000:838 JLINK_WriteReg(R2, 0x000000FF)  returns 0x00 (0000ms, 0599ms total)
T17AC 000:838 JLINK_WriteReg(R3, 0x00000000)  returns 0x00 (0001ms, 0600ms total)
T17AC 000:839 JLINK_WriteReg(R4, 0x00000000)  returns 0x00 (0000ms, 0600ms total)
T17AC 000:839 JLINK_WriteReg(R5, 0x00000000)  returns 0x00 (0000ms, 0600ms total)
T17AC 000:839 JLINK_WriteReg(R6, 0x00000000)  returns 0x00 (0000ms, 0600ms total)
T17AC 000:839 JLINK_WriteReg(R7, 0x00000000)  returns 0x00 (0000ms, 0600ms total)
T17AC 000:839 JLINK_WriteReg(R8, 0x00000000)  returns 0x00 (0000ms, 0600ms total)
T17AC 000:839 JLINK_WriteReg(R9, 0x20000160)  returns 0x00 (0000ms, 0600ms total)
T17AC 000:839 JLINK_WriteReg(R10, 0x00000000)  returns 0x00 (0000ms, 0600ms total)
T17AC 000:839 JLINK_WriteReg(R11, 0x00000000)  returns 0x00 (0000ms, 0600ms total)
T17AC 000:839 JLINK_WriteReg(R12, 0x00000000)  returns 0x00 (0000ms, 0600ms total)
T17AC 000:839 JLINK_WriteReg(R13 (SP), 0x20000800)  returns 0x00 (0000ms, 0600ms total)
T17AC 000:839 JLINK_WriteReg(R14, 0x20000001)  returns 0x00 (0000ms, 0600ms total)
T17AC 000:839 JLINK_WriteReg(R15 (PC), 0x200000B6)  returns 0x00 (0000ms, 0600ms total)
T17AC 000:839 JLINK_WriteReg(XPSR, 0x01000000)  returns 0x00 (0000ms, 0600ms total)
T17AC 000:839 JLINK_WriteReg(MSP, 0x20000800)  returns 0x00 (0000ms, 0600ms total)
T17AC 000:839 JLINK_WriteReg(PSP, 0x20000800)  returns 0x00 (0000ms, 0600ms total)
T17AC 000:839 JLINK_WriteReg(CFBP, 0x00000000)  returns 0x00 (0000ms, 0600ms total)
T17AC 000:839 JLINK_SetBPEx(Addr = 0x20000000, Type = 0xFFFFFFF2)  returns 0x00000003 (0000ms, 0600ms total)
T17AC 000:839 JLINK_Go() (0001ms, 0601ms total)
T17AC 000:840 JLINK_IsHalted()  returns FALSE (0000ms, 0601ms total)
T17AC 000:898 JLINK_IsHalted() -- CPU_ReadMem(2 bytes @ 0x20000000)  returns TRUE (0002ms, 0603ms total)
T17AC 000:900 JLINK_ReadReg(R15 (PC))  returns 0x20000000 (0000ms, 0601ms total)
T17AC 000:900 JLINK_ClrBPEx(BPHandle = 0x00000003)  returns 0x00 (0000ms, 0601ms total)
T17AC 000:900 JLINK_ReadReg(R0)  returns 0x00000000 (0000ms, 0601ms total)
T17AC 000:901 JLINK_WriteReg(R0, 0x08000800)  returns 0x00 (0000ms, 0601ms total)
T17AC 000:901 JLINK_WriteReg(R1, 0x00000800)  returns 0x00 (0000ms, 0601ms total)
T17AC 000:901 JLINK_WriteReg(R2, 0x000000FF)  returns 0x00 (0000ms, 0601ms total)
T17AC 000:901 JLINK_WriteReg(R3, 0x00000000)  returns 0x00 (0000ms, 0601ms total)
T17AC 000:901 JLINK_WriteReg(R4, 0x00000000)  returns 0x00 (0000ms, 0601ms total)
T17AC 000:901 JLINK_WriteReg(R5, 0x00000000)  returns 0x00 (0000ms, 0601ms total)
T17AC 000:901 JLINK_WriteReg(R6, 0x00000000)  returns 0x00 (0000ms, 0601ms total)
T17AC 000:901 JLINK_WriteReg(R7, 0x00000000)  returns 0x00 (0000ms, 0601ms total)
T17AC 000:901 JLINK_WriteReg(R8, 0x00000000)  returns 0x00 (0000ms, 0601ms total)
T17AC 000:901 JLINK_WriteReg(R9, 0x20000160)  returns 0x00 (0000ms, 0601ms total)
T17AC 000:901 JLINK_WriteReg(R10, 0x00000000)  returns 0x00 (0000ms, 0601ms total)
T17AC 000:901 JLINK_WriteReg(R11, 0x00000000)  returns 0x00 (0000ms, 0601ms total)
T17AC 000:901 JLINK_WriteReg(R12, 0x00000000)  returns 0x00 (0000ms, 0601ms total)
T17AC 000:901 JLINK_WriteReg(R13 (SP), 0x20000800)  returns 0x00 (0000ms, 0601ms total)
T17AC 000:901 JLINK_WriteReg(R14, 0x20000001)  returns 0x00 (0000ms, 0601ms total)
T17AC 000:901 JLINK_WriteReg(R15 (PC), 0x20000020)  returns 0x00 (0000ms, 0601ms total)
T17AC 000:901 JLINK_WriteReg(XPSR, 0x01000000)  returns 0x00 (0000ms, 0601ms total)
T17AC 000:901 JLINK_WriteReg(MSP, 0x20000800)  returns 0x00 (0000ms, 0601ms total)
T17AC 000:901 JLINK_WriteReg(PSP, 0x20000800)  returns 0x00 (0000ms, 0601ms total)
T17AC 000:901 JLINK_WriteReg(CFBP, 0x00000000)  returns 0x00 (0000ms, 0601ms total)
T17AC 000:901 JLINK_SetBPEx(Addr = 0x20000000, Type = 0xFFFFFFF2)  returns 0x00000004 (0000ms, 0601ms total)
T17AC 000:901 JLINK_Go() (0001ms, 0602ms total)
T17AC 000:902 JLINK_IsHalted() -- CPU_ReadMem(2 bytes @ 0x20000000)  returns TRUE (0003ms, 0605ms total)
T17AC 000:905 JLINK_ReadReg(R15 (PC))  returns 0x20000000 (0000ms, 0602ms total)
T17AC 000:905 JLINK_ClrBPEx(BPHandle = 0x00000004)  returns 0x00 (0000ms, 0602ms total)
T17AC 000:905 JLINK_ReadReg(R0)  returns 0x00000001 (0000ms, 0602ms total)
T17AC 000:905 JLINK_WriteReg(R0, 0x08000800)  returns 0x00 (0000ms, 0602ms total)
T17AC 000:905 JLINK_WriteReg(R1, 0x00000800)  returns 0x00 (0000ms, 0602ms total)
T17AC 000:905 JLINK_WriteReg(R2, 0x000000FF)  returns 0x00 (0000ms, 0602ms total)
T17AC 000:905 JLINK_WriteReg(R3, 0x00000000)  returns 0x00 (0000ms, 0602ms total)
T17AC 000:905 JLINK_WriteReg(R4, 0x00000000)  returns 0x00 (0000ms, 0602ms total)
T17AC 000:905 JLINK_WriteReg(R5, 0x00000000)  returns 0x00 (0000ms, 0602ms total)
T17AC 000:905 JLINK_WriteReg(R6, 0x00000000)  returns 0x00 (0000ms, 0602ms total)
T17AC 000:905 JLINK_WriteReg(R7, 0x00000000)  returns 0x00 (0000ms, 0602ms total)
T17AC 000:905 JLINK_WriteReg(R8, 0x00000000)  returns 0x00 (0000ms, 0602ms total)
T17AC 000:905 JLINK_WriteReg(R9, 0x20000160)  returns 0x00 (0000ms, 0602ms total)
T17AC 000:905 JLINK_WriteReg(R10, 0x00000000)  returns 0x00 (0000ms, 0602ms total)
T17AC 000:905 JLINK_WriteReg(R11, 0x00000000)  returns 0x00 (0001ms, 0603ms total)
T17AC 000:906 JLINK_WriteReg(R12, 0x00000000)  returns 0x00 (0000ms, 0603ms total)
T17AC 000:906 JLINK_WriteReg(R13 (SP), 0x20000800)  returns 0x00 (0000ms, 0603ms total)
T17AC 000:906 JLINK_WriteReg(R14, 0x20000001)  returns 0x00 (0000ms, 0603ms total)
T17AC 000:906 JLINK_WriteReg(R15 (PC), 0x200000B6)  returns 0x00 (0000ms, 0603ms total)
T17AC 000:906 JLINK_WriteReg(XPSR, 0x01000000)  returns 0x00 (0000ms, 0603ms total)
T17AC 000:906 JLINK_WriteReg(MSP, 0x20000800)  returns 0x00 (0000ms, 0603ms total)
T17AC 000:906 JLINK_WriteReg(PSP, 0x20000800)  returns 0x00 (0000ms, 0603ms total)
T17AC 000:906 JLINK_WriteReg(CFBP, 0x00000000)  returns 0x00 (0000ms, 0603ms total)
T17AC 000:906 JLINK_SetBPEx(Addr = 0x20000000, Type = 0xFFFFFFF2)  returns 0x00000005 (0000ms, 0603ms total)
T17AC 000:906 JLINK_Go() (0001ms, 0604ms total)
T17AC 000:907 JLINK_IsHalted()  returns FALSE (0000ms, 0604ms total)
T17AC 000:911 JLINK_IsHalted()  returns FALSE (0000ms, 0604ms total)
T17AC 000:913 JLINK_IsHalted()  returns FALSE (0000ms, 0604ms total)
T17AC 000:915 JLINK_IsHalted()  returns FALSE (0000ms, 0604ms total)
T17AC 000:927 JLINK_IsHalted()  returns FALSE (0000ms, 0604ms total)
T17AC 000:929 JLINK_IsHalted() -- CPU_ReadMem(2 bytes @ 0x20000000)  returns TRUE (0002ms, 0606ms total)
T17AC 000:931 JLINK_ReadReg(R15 (PC))  returns 0x20000000 (0000ms, 0604ms total)
T17AC 000:931 JLINK_ClrBPEx(BPHandle = 0x00000005)  returns 0x00 (0000ms, 0604ms total)
T17AC 000:931 JLINK_ReadReg(R0)  returns 0x00000000 (0000ms, 0604ms total)
T17AC 000:932 JLINK_WriteReg(R0, 0x08001000)  returns 0x00 (0000ms, 0604ms total)
T17AC 000:932 JLINK_WriteReg(R1, 0x00000800)  returns 0x00 (0000ms, 0604ms total)
T17AC 000:932 JLINK_WriteReg(R2, 0x000000FF)  returns 0x00 (0000ms, 0604ms total)
T17AC 000:932 JLINK_WriteReg(R3, 0x00000000)  returns 0x00 (0000ms, 0604ms total)
T17AC 000:932 JLINK_WriteReg(R4, 0x00000000)  returns 0x00 (0001ms, 0605ms total)
T17AC 000:933 JLINK_WriteReg(R5, 0x00000000)  returns 0x00 (0000ms, 0605ms total)
T17AC 000:933 JLINK_WriteReg(R6, 0x00000000)  returns 0x00 (0000ms, 0605ms total)
T17AC 000:933 JLINK_WriteReg(R7, 0x00000000)  returns 0x00 (0000ms, 0605ms total)
T17AC 000:933 JLINK_WriteReg(R8, 0x00000000)  returns 0x00 (0000ms, 0605ms total)
T17AC 000:933 JLINK_WriteReg(R9, 0x20000160)  returns 0x00 (0000ms, 0605ms total)
T17AC 000:933 JLINK_WriteReg(R10, 0x00000000)  returns 0x00 (0000ms, 0605ms total)
T17AC 000:933 JLINK_WriteReg(R11, 0x00000000)  returns 0x00 (0000ms, 0605ms total)
T17AC 000:933 JLINK_WriteReg(R12, 0x00000000)  returns 0x00 (0000ms, 0605ms total)
T17AC 000:933 JLINK_WriteReg(R13 (SP), 0x20000800)  returns 0x00 (0000ms, 0605ms total)
T17AC 000:933 JLINK_WriteReg(R14, 0x20000001)  returns 0x00 (0000ms, 0605ms total)
T17AC 000:933 JLINK_WriteReg(R15 (PC), 0x20000020)  returns 0x00 (0000ms, 0605ms total)
T17AC 000:933 JLINK_WriteReg(XPSR, 0x01000000)  returns 0x00 (0000ms, 0605ms total)
T17AC 000:933 JLINK_WriteReg(MSP, 0x20000800)  returns 0x00 (0000ms, 0605ms total)
T17AC 000:933 JLINK_WriteReg(PSP, 0x20000800)  returns 0x00 (0000ms, 0605ms total)
T17AC 000:933 JLINK_WriteReg(CFBP, 0x00000000)  returns 0x00 (0000ms, 0605ms total)
T17AC 000:933 JLINK_SetBPEx(Addr = 0x20000000, Type = 0xFFFFFFF2)  returns 0x00000006 (0000ms, 0605ms total)
T17AC 000:933 JLINK_Go() (0001ms, 0606ms total)
T17AC 000:934 JLINK_IsHalted() -- CPU_ReadMem(2 bytes @ 0x20000000)  returns TRUE (0003ms, 0609ms total)
T17AC 000:937 JLINK_ReadReg(R15 (PC))  returns 0x20000000 (0000ms, 0606ms total)
T17AC 000:937 JLINK_ClrBPEx(BPHandle = 0x00000006)  returns 0x00 (0000ms, 0606ms total)
T17AC 000:937 JLINK_ReadReg(R0)  returns 0x00000001 (0000ms, 0606ms total)
T17AC 000:937 JLINK_WriteReg(R0, 0x08001000)  returns 0x00 (0000ms, 0606ms total)
T17AC 000:937 JLINK_WriteReg(R1, 0x00000800)  returns 0x00 (0000ms, 0606ms total)
T17AC 000:937 JLINK_WriteReg(R2, 0x000000FF)  returns 0x00 (0000ms, 0606ms total)
T17AC 000:937 JLINK_WriteReg(R3, 0x00000000)  returns 0x00 (0000ms, 0606ms total)
T17AC 000:937 JLINK_WriteReg(R4, 0x00000000)  returns 0x00 (0000ms, 0606ms total)
T17AC 000:937 JLINK_WriteReg(R5, 0x00000000)  returns 0x00 (0000ms, 0606ms total)
T17AC 000:937 JLINK_WriteReg(R6, 0x00000000)  returns 0x00 (0000ms, 0606ms total)
T17AC 000:937 JLINK_WriteReg(R7, 0x00000000)  returns 0x00 (0000ms, 0606ms total)
T17AC 000:937 JLINK_WriteReg(R8, 0x00000000)  returns 0x00 (0000ms, 0606ms total)
T17AC 000:937 JLINK_WriteReg(R9, 0x20000160)  returns 0x00 (0000ms, 0606ms total)
T17AC 000:937 JLINK_WriteReg(R10, 0x00000000)  returns 0x00 (0000ms, 0606ms total)
T17AC 000:937 JLINK_WriteReg(R11, 0x00000000)  returns 0x00 (0000ms, 0606ms total)
T17AC 000:937 JLINK_WriteReg(R12, 0x00000000)  returns 0x00 (0000ms, 0606ms total)
T17AC 000:937 JLINK_WriteReg(R13 (SP), 0x20000800)  returns 0x00 (0000ms, 0606ms total)
T17AC 000:937 JLINK_WriteReg(R14, 0x20000001)  returns 0x00 (0000ms, 0606ms total)
T17AC 000:937 JLINK_WriteReg(R15 (PC), 0x200000B6)  returns 0x00 (0000ms, 0606ms total)
T17AC 000:937 JLINK_WriteReg(XPSR, 0x01000000)  returns 0x00 (0000ms, 0606ms total)
T17AC 000:937 JLINK_WriteReg(MSP, 0x20000800)  returns 0x00 (0000ms, 0606ms total)
T17AC 000:937 JLINK_WriteReg(PSP, 0x20000800)  returns 0x00 (0000ms, 0606ms total)
T17AC 000:937 JLINK_WriteReg(CFBP, 0x00000000)  returns 0x00 (0000ms, 0606ms total)
T17AC 000:937 JLINK_SetBPEx(Addr = 0x20000000, Type = 0xFFFFFFF2)  returns 0x00000007 (0000ms, 0606ms total)
T17AC 000:937 JLINK_Go() (0001ms, 0607ms total)
T17AC 000:938 JLINK_IsHalted()  returns FALSE (0001ms, 0608ms total)
T17AC 000:944 JLINK_IsHalted()  returns FALSE (0000ms, 0607ms total)
T17AC 000:946 JLINK_IsHalted()  returns FALSE (0000ms, 0607ms total)
T17AC 000:951 JLINK_IsHalted()  returns FALSE (0000ms, 0607ms total)
T17AC 000:953 JLINK_IsHalted()  returns FALSE (0000ms, 0607ms total)
T17AC 000:955 JLINK_IsHalted()  returns FALSE (0000ms, 0607ms total)
T17AC 000:957 JLINK_IsHalted()  returns FALSE (0000ms, 0607ms total)
T17AC 000:959 JLINK_IsHalted()  returns FALSE (0000ms, 0607ms total)
T17AC 000:961 JLINK_IsHalted() -- CPU_ReadMem(2 bytes @ 0x20000000)  returns TRUE (0002ms, 0609ms total)
T17AC 000:963 JLINK_ReadReg(R15 (PC))  returns 0x20000000 (0000ms, 0607ms total)
T17AC 000:963 JLINK_ClrBPEx(BPHandle = 0x00000007)  returns 0x00 (0000ms, 0607ms total)
T17AC 000:963 JLINK_ReadReg(R0)  returns 0x00000000 (0000ms, 0607ms total)
T17AC 000:963 JLINK_WriteReg(R0, 0x00000001)  returns 0x00 (0001ms, 0608ms total)
T17AC 000:964 JLINK_WriteReg(R1, 0x00000800)  returns 0x00 (0000ms, 0608ms total)
T17AC 000:964 JLINK_WriteReg(R2, 0x000000FF)  returns 0x00 (0000ms, 0608ms total)
T17AC 000:964 JLINK_WriteReg(R3, 0x00000000)  returns 0x00 (0000ms, 0608ms total)
T17AC 000:964 JLINK_WriteReg(R4, 0x00000000)  returns 0x00 (0000ms, 0608ms total)
T17AC 000:964 JLINK_WriteReg(R5, 0x00000000)  returns 0x00 (0000ms, 0608ms total)
T17AC 000:964 JLINK_WriteReg(R6, 0x00000000)  returns 0x00 (0000ms, 0608ms total)
T17AC 000:964 JLINK_WriteReg(R7, 0x00000000)  returns 0x00 (0000ms, 0608ms total)
T17AC 000:964 JLINK_WriteReg(R8, 0x00000000)  returns 0x00 (0000ms, 0608ms total)
T17AC 000:964 JLINK_WriteReg(R9, 0x20000160)  returns 0x00 (0000ms, 0608ms total)
T17AC 000:964 JLINK_WriteReg(R10, 0x00000000)  returns 0x00 (0000ms, 0608ms total)
T17AC 000:964 JLINK_WriteReg(R11, 0x00000000)  returns 0x00 (0000ms, 0608ms total)
T17AC 000:964 JLINK_WriteReg(R12, 0x00000000)  returns 0x00 (0000ms, 0608ms total)
T17AC 000:964 JLINK_WriteReg(R13 (SP), 0x20000800)  returns 0x00 (0000ms, 0608ms total)
T17AC 000:964 JLINK_WriteReg(R14, 0x20000001)  returns 0x00 (0000ms, 0608ms total)
T17AC 000:964 JLINK_WriteReg(R15 (PC), 0x2000006A)  returns 0x00 (0000ms, 0608ms total)
T17AC 000:964 JLINK_WriteReg(XPSR, 0x01000000)  returns 0x00 (0000ms, 0608ms total)
T17AC 000:964 JLINK_WriteReg(MSP, 0x20000800)  returns 0x00 (0000ms, 0608ms total)
T17AC 000:964 JLINK_WriteReg(PSP, 0x20000800)  returns 0x00 (0000ms, 0608ms total)
T17AC 000:964 JLINK_WriteReg(CFBP, 0x00000000)  returns 0x00 (0000ms, 0608ms total)
T17AC 000:964 JLINK_SetBPEx(Addr = 0x20000000, Type = 0xFFFFFFF2)  returns 0x00000008 (0000ms, 0608ms total)
T17AC 000:964 JLINK_Go() (0001ms, 0609ms total)
T17AC 000:965 JLINK_IsHalted() -- CPU_ReadMem(2 bytes @ 0x20000000)  returns TRUE (0003ms, 0612ms total)
T17AC 000:968 JLINK_ReadReg(R15 (PC))  returns 0x20000000 (0000ms, 0609ms total)
T17AC 000:968 JLINK_ClrBPEx(BPHandle = 0x00000008)  returns 0x00 (0000ms, 0609ms total)
T17AC 000:968 JLINK_ReadReg(R0)  returns 0x00000000 (0000ms, 0609ms total)
T17AC 001:023 JLINK_WriteMem(0x20000000, 0x0164 Bytes, ...) -- Data:  00 BE 0A E0 0D 78 2D 06 68 40 08 24 40 00 00 D3 ... -- CPU_WriteMem(356 bytes @ 0x20000000)  returns 0x164 (0003ms, 0612ms total)
T17AC 001:026 JLINK_WriteReg(R0, 0x08000000)  returns 0x00 (0000ms, 0612ms total)
T17AC 001:026 JLINK_WriteReg(R1, 0x007A1200)  returns 0x00 (0000ms, 0612ms total)
T17AC 001:026 JLINK_WriteReg(R2, 0x00000002)  returns 0x00 (0000ms, 0612ms total)
T17AC 001:026 JLINK_WriteReg(R3, 0x00000000)  returns 0x00 (0000ms, 0612ms total)
T17AC 001:026 JLINK_WriteReg(R4, 0x00000000)  returns 0x00 (0000ms, 0612ms total)
T17AC 001:026 JLINK_WriteReg(R5, 0x00000000)  returns 0x00 (0000ms, 0612ms total)
T17AC 001:026 JLINK_WriteReg(R6, 0x00000000)  returns 0x00 (0000ms, 0612ms total)
T17AC 001:026 JLINK_WriteReg(R7, 0x00000000)  returns 0x00 (0000ms, 0612ms total)
T17AC 001:026 JLINK_WriteReg(R8, 0x00000000)  returns 0x00 (0000ms, 0612ms total)
T17AC 001:026 JLINK_WriteReg(R9, 0x20000160)  returns 0x00 (0000ms, 0612ms total)
T17AC 001:026 JLINK_WriteReg(R10, 0x00000000)  returns 0x00 (0000ms, 0612ms total)
T17AC 001:026 JLINK_WriteReg(R11, 0x00000000)  returns 0x00 (0001ms, 0613ms total)
T17AC 001:027 JLINK_WriteReg(R12, 0x00000000)  returns 0x00 (0000ms, 0613ms total)
T17AC 001:027 JLINK_WriteReg(R13 (SP), 0x20000800)  returns 0x00 (0000ms, 0613ms total)
T17AC 001:027 JLINK_WriteReg(R14, 0x20000001)  returns 0x00 (0000ms, 0613ms total)
T17AC 001:027 JLINK_WriteReg(R15 (PC), 0x20000038)  returns 0x00 (0000ms, 0613ms total)
T17AC 001:027 JLINK_WriteReg(XPSR, 0x01000000)  returns 0x00 (0000ms, 0613ms total)
T17AC 001:027 JLINK_WriteReg(MSP, 0x20000800)  returns 0x00 (0000ms, 0613ms total)
T17AC 001:027 JLINK_WriteReg(PSP, 0x20000800)  returns 0x00 (0000ms, 0613ms total)
T17AC 001:027 JLINK_WriteReg(CFBP, 0x00000000)  returns 0x00 (0000ms, 0613ms total)
T17AC 001:027 JLINK_SetBPEx(Addr = 0x20000000, Type = 0xFFFFFFF2) -- CPU_ReadMem(2 bytes @ 0x20000000)  returns 0x00000009 (0000ms, 0613ms total)
T17AC 001:028 JLINK_Go() -- CPU_WriteMem(2 bytes @ 0x20000000) (0001ms, 0615ms total)
T17AC 001:029 JLINK_IsHalted() -- CPU_ReadMem(2 bytes @ 0x20000000)  returns TRUE (0003ms, 0618ms total)
T17AC 001:032 JLINK_ReadReg(R15 (PC))  returns 0x20000000 (0000ms, 0615ms total)
T17AC 001:032 JLINK_ClrBPEx(BPHandle = 0x00000009)  returns 0x00 (0000ms, 0615ms total)
T17AC 001:032 JLINK_ReadReg(R0)  returns 0x00000000 (0000ms, 0615ms total)
T17AC 001:033 JLINK_WriteMem(0x20000164, 0x0400 Bytes, ...) -- Data:  60 07 00 20 11 08 00 08 95 02 00 08 97 02 00 08 ... -- CPU_WriteMem(1024 bytes @ 0x20000164)  returns 0x400 (0006ms, 0621ms total)
T17AC 001:039 JLINK_WriteReg(R0, 0x08000000)  returns 0x00 (0000ms, 0621ms total)
T17AC 001:039 JLINK_WriteReg(R1, 0x00000400)  returns 0x00 (0000ms, 0621ms total)
T17AC 001:039 JLINK_WriteReg(R2, 0x20000164)  returns 0x00 (0000ms, 0621ms total)
T17AC 001:039 JLINK_WriteReg(R3, 0x00000000)  returns 0x00 (0000ms, 0621ms total)
T17AC 001:039 JLINK_WriteReg(R4, 0x00000000)  returns 0x00 (0000ms, 0621ms total)
T17AC 001:039 JLINK_WriteReg(R5, 0x00000000)  returns 0x00 (0000ms, 0621ms total)
T17AC 001:039 JLINK_WriteReg(R6, 0x00000000)  returns 0x00 (0001ms, 0622ms total)
T17AC 001:040 JLINK_WriteReg(R7, 0x00000000)  returns 0x00 (0000ms, 0622ms total)
T17AC 001:040 JLINK_WriteReg(R8, 0x00000000)  returns 0x00 (0000ms, 0622ms total)
T17AC 001:040 JLINK_WriteReg(R9, 0x20000160)  returns 0x00 (0000ms, 0622ms total)
T17AC 001:040 JLINK_WriteReg(R10, 0x00000000)  returns 0x00 (0000ms, 0622ms total)
T17AC 001:040 JLINK_WriteReg(R11, 0x00000000)  returns 0x00 (0000ms, 0622ms total)
T17AC 001:040 JLINK_WriteReg(R12, 0x00000000)  returns 0x00 (0000ms, 0622ms total)
T17AC 001:040 JLINK_WriteReg(R13 (SP), 0x20000800)  returns 0x00 (0000ms, 0622ms total)
T17AC 001:040 JLINK_WriteReg(R14, 0x20000001)  returns 0x00 (0000ms, 0622ms total)
T17AC 001:040 JLINK_WriteReg(R15 (PC), 0x200000F4)  returns 0x00 (0000ms, 0622ms total)
T17AC 001:040 JLINK_WriteReg(XPSR, 0x01000000)  returns 0x00 (0000ms, 0622ms total)
T17AC 001:040 JLINK_WriteReg(MSP, 0x20000800)  returns 0x00 (0000ms, 0622ms total)
T17AC 001:040 JLINK_WriteReg(PSP, 0x20000800)  returns 0x00 (0000ms, 0622ms total)
T17AC 001:040 JLINK_WriteReg(CFBP, 0x00000000)  returns 0x00 (0000ms, 0622ms total)
T17AC 001:040 JLINK_SetBPEx(Addr = 0x20000000, Type = 0xFFFFFFF2)  returns 0x0000000A (0000ms, 0622ms total)
T17AC 001:040 JLINK_Go() (0002ms, 0624ms total)
T17AC 001:042 JLINK_IsHalted()  returns FALSE (0000ms, 0624ms total)
T17AC 001:086 JLINK_IsHalted() -- CPU_ReadMem(2 bytes @ 0x20000000)  returns TRUE (0002ms, 0626ms total)
T17AC 001:088 JLINK_ReadReg(R15 (PC))  returns 0x20000000 (0000ms, 0624ms total)
T17AC 001:088 JLINK_ClrBPEx(BPHandle = 0x0000000A)  returns 0x00 (0000ms, 0624ms total)
T17AC 001:088 JLINK_ReadReg(R0)  returns 0x00000000 (0000ms, 0624ms total)
T17AC 001:089 JLINK_WriteMem(0x20000164, 0x0400 Bytes, ...) -- Data:  1F 4B 20 4C 23 60 23 E0 18 4B 5B 68 03 F4 70 10 ... -- CPU_WriteMem(1024 bytes @ 0x20000164)  returns 0x400 (0006ms, 0630ms total)
T17AC 001:095 JLINK_WriteReg(R0, 0x08000400)  returns 0x00 (0000ms, 0630ms total)
T17AC 001:095 JLINK_WriteReg(R1, 0x00000400)  returns 0x00 (0000ms, 0630ms total)
T17AC 001:095 JLINK_WriteReg(R2, 0x20000164)  returns 0x00 (0000ms, 0630ms total)
T17AC 001:095 JLINK_WriteReg(R3, 0x00000000)  returns 0x00 (0000ms, 0630ms total)
T17AC 001:095 JLINK_WriteReg(R4, 0x00000000)  returns 0x00 (0000ms, 0630ms total)
T17AC 001:095 JLINK_WriteReg(R5, 0x00000000)  returns 0x00 (0001ms, 0631ms total)
T17AC 001:096 JLINK_WriteReg(R6, 0x00000000)  returns 0x00 (0000ms, 0631ms total)
T17AC 001:096 JLINK_WriteReg(R7, 0x00000000)  returns 0x00 (0000ms, 0631ms total)
T17AC 001:096 JLINK_WriteReg(R8, 0x00000000)  returns 0x00 (0000ms, 0631ms total)
T17AC 001:096 JLINK_WriteReg(R9, 0x20000160)  returns 0x00 (0000ms, 0631ms total)
T17AC 001:096 JLINK_WriteReg(R10, 0x00000000)  returns 0x00 (0000ms, 0631ms total)
T17AC 001:096 JLINK_WriteReg(R11, 0x00000000)  returns 0x00 (0000ms, 0631ms total)
T17AC 001:096 JLINK_WriteReg(R12, 0x00000000)  returns 0x00 (0000ms, 0631ms total)
T17AC 001:096 JLINK_WriteReg(R13 (SP), 0x20000800)  returns 0x00 (0000ms, 0631ms total)
T17AC 001:096 JLINK_WriteReg(R14, 0x20000001)  returns 0x00 (0000ms, 0631ms total)
T17AC 001:096 JLINK_WriteReg(R15 (PC), 0x200000F4)  returns 0x00 (0000ms, 0631ms total)
T17AC 001:096 JLINK_WriteReg(XPSR, 0x01000000)  returns 0x00 (0000ms, 0631ms total)
T17AC 001:096 JLINK_WriteReg(MSP, 0x20000800)  returns 0x00 (0000ms, 0631ms total)
T17AC 001:096 JLINK_WriteReg(PSP, 0x20000800)  returns 0x00 (0000ms, 0631ms total)
T17AC 001:096 JLINK_WriteReg(CFBP, 0x00000000)  returns 0x00 (0000ms, 0631ms total)
T17AC 001:096 JLINK_SetBPEx(Addr = 0x20000000, Type = 0xFFFFFFF2)  returns 0x0000000B (0000ms, 0631ms total)
T17AC 001:096 JLINK_Go() (0001ms, 0632ms total)
T17AC 001:097 JLINK_IsHalted()  returns FALSE (0001ms, 0633ms total)
T17AC 001:102 JLINK_IsHalted()  returns FALSE (0000ms, 0632ms total)
T17AC 001:108 JLINK_IsHalted()  returns FALSE (0000ms, 0632ms total)
T17AC 001:110 JLINK_IsHalted()  returns FALSE (0000ms, 0632ms total)
T17AC 001:112 JLINK_IsHalted()  returns FALSE (0000ms, 0632ms total)
T17AC 001:114 JLINK_IsHalted()  returns FALSE (0000ms, 0632ms total)
T17AC 001:116 JLINK_IsHalted()  returns FALSE (0000ms, 0632ms total)
T17AC 001:118 JLINK_IsHalted()  returns FALSE (0000ms, 0632ms total)
T17AC 001:123 JLINK_IsHalted()  returns FALSE (0000ms, 0632ms total)
T17AC 001:125 JLINK_IsHalted()  returns FALSE (0000ms, 0632ms total)
T17AC 001:127 JLINK_IsHalted()  returns FALSE (0000ms, 0632ms total)
T17AC 001:129 JLINK_IsHalted() -- CPU_ReadMem(2 bytes @ 0x20000000)  returns TRUE (0002ms, 0634ms total)
T17AC 001:131 JLINK_ReadReg(R15 (PC))  returns 0x20000000 (0000ms, 0632ms total)
T17AC 001:131 JLINK_ClrBPEx(BPHandle = 0x0000000B)  returns 0x00 (0000ms, 0632ms total)
T17AC 001:131 JLINK_ReadReg(R0)  returns 0x00000000 (0000ms, 0632ms total)
T17AC 001:132 JLINK_WriteMem(0x20000164, 0x0400 Bytes, ...) -- Data:  00 38 01 40 00 08 01 40 20 00 00 20 38 00 00 20 ... -- CPU_WriteMem(1024 bytes @ 0x20000164)  returns 0x400 (0006ms, 0638ms total)
T17AC 001:138 JLINK_WriteReg(R0, 0x08000800)  returns 0x00 (0000ms, 0638ms total)
T17AC 001:138 JLINK_WriteReg(R1, 0x00000400)  returns 0x00 (0001ms, 0639ms total)
T17AC 001:139 JLINK_WriteReg(R2, 0x20000164)  returns 0x00 (0000ms, 0639ms total)
T17AC 001:139 JLINK_WriteReg(R3, 0x00000000)  returns 0x00 (0000ms, 0639ms total)
T17AC 001:139 JLINK_WriteReg(R4, 0x00000000)  returns 0x00 (0000ms, 0639ms total)
T17AC 001:139 JLINK_WriteReg(R5, 0x00000000)  returns 0x00 (0000ms, 0639ms total)
T17AC 001:139 JLINK_WriteReg(R6, 0x00000000)  returns 0x00 (0000ms, 0639ms total)
T17AC 001:139 JLINK_WriteReg(R7, 0x00000000)  returns 0x00 (0000ms, 0639ms total)
T17AC 001:139 JLINK_WriteReg(R8, 0x00000000)  returns 0x00 (0000ms, 0639ms total)
T17AC 001:139 JLINK_WriteReg(R9, 0x20000160)  returns 0x00 (0000ms, 0639ms total)
T17AC 001:139 JLINK_WriteReg(R10, 0x00000000)  returns 0x00 (0000ms, 0639ms total)
T17AC 001:139 JLINK_WriteReg(R11, 0x00000000)  returns 0x00 (0000ms, 0639ms total)
T17AC 001:139 JLINK_WriteReg(R12, 0x00000000)  returns 0x00 (0000ms, 0639ms total)
T17AC 001:139 JLINK_WriteReg(R13 (SP), 0x20000800)  returns 0x00 (0000ms, 0639ms total)
T17AC 001:139 JLINK_WriteReg(R14, 0x20000001)  returns 0x00 (0000ms, 0639ms total)
T17AC 001:139 JLINK_WriteReg(R15 (PC), 0x200000F4)  returns 0x00 (0000ms, 0639ms total)
T17AC 001:139 JLINK_WriteReg(XPSR, 0x01000000)  returns 0x00 (0000ms, 0639ms total)
T17AC 001:139 JLINK_WriteReg(MSP, 0x20000800)  returns 0x00 (0000ms, 0639ms total)
T17AC 001:139 JLINK_WriteReg(PSP, 0x20000800)  returns 0x00 (0000ms, 0639ms total)
T17AC 001:139 JLINK_WriteReg(CFBP, 0x00000000)  returns 0x00 (0000ms, 0639ms total)
T17AC 001:139 JLINK_SetBPEx(Addr = 0x20000000, Type = 0xFFFFFFF2)  returns 0x0000000C (0000ms, 0639ms total)
T17AC 001:139 JLINK_Go() (0001ms, 0640ms total)
T17AC 001:140 JLINK_IsHalted()  returns FALSE (0001ms, 0641ms total)
T17AC 001:159 JLINK_IsHalted()  returns FALSE (0000ms, 0640ms total)
T17AC 001:161 JLINK_IsHalted()  returns FALSE (0000ms, 0640ms total)
T17AC 001:163 JLINK_IsHalted()  returns FALSE (0000ms, 0640ms total)
T17AC 001:165 JLINK_IsHalted()  returns FALSE (0000ms, 0640ms total)
T17AC 001:170 JLINK_IsHalted()  returns FALSE (0000ms, 0640ms total)
T17AC 001:172 JLINK_IsHalted() -- CPU_ReadMem(2 bytes @ 0x20000000)  returns TRUE (0002ms, 0642ms total)
T17AC 001:174 JLINK_ReadReg(R15 (PC))  returns 0x20000000 (0000ms, 0640ms total)
T17AC 001:174 JLINK_ClrBPEx(BPHandle = 0x0000000C)  returns 0x00 (0000ms, 0640ms total)
T17AC 001:174 JLINK_ReadReg(R0)  returns 0x00000000 (0000ms, 0640ms total)
T17AC 001:175 JLINK_WriteMem(0x20000164, 0x0400 Bytes, ...) -- Data:  31 43 00 F0 00 46 B6 F1 00 4F 02 D1 1C 4E F1 61 ... -- CPU_WriteMem(1024 bytes @ 0x20000164)  returns 0x400 (0006ms, 0646ms total)
T17AC 001:181 JLINK_WriteReg(R0, 0x08000C00)  returns 0x00 (0000ms, 0646ms total)
T17AC 001:181 JLINK_WriteReg(R1, 0x00000400)  returns 0x00 (0001ms, 0647ms total)
T17AC 001:182 JLINK_WriteReg(R2, 0x20000164)  returns 0x00 (0000ms, 0647ms total)
T17AC 001:182 JLINK_WriteReg(R3, 0x00000000)  returns 0x00 (0000ms, 0647ms total)
T17AC 001:182 JLINK_WriteReg(R4, 0x00000000)  returns 0x00 (0000ms, 0647ms total)
T17AC 001:182 JLINK_WriteReg(R5, 0x00000000)  returns 0x00 (0000ms, 0647ms total)
T17AC 001:182 JLINK_WriteReg(R6, 0x00000000)  returns 0x00 (0000ms, 0647ms total)
T17AC 001:182 JLINK_WriteReg(R7, 0x00000000)  returns 0x00 (0000ms, 0647ms total)
T17AC 001:182 JLINK_WriteReg(R8, 0x00000000)  returns 0x00 (0000ms, 0647ms total)
T17AC 001:182 JLINK_WriteReg(R9, 0x20000160)  returns 0x00 (0000ms, 0647ms total)
T17AC 001:182 JLINK_WriteReg(R10, 0x00000000)  returns 0x00 (0000ms, 0647ms total)
T17AC 001:182 JLINK_WriteReg(R11, 0x00000000)  returns 0x00 (0000ms, 0647ms total)
T17AC 001:182 JLINK_WriteReg(R12, 0x00000000)  returns 0x00 (0000ms, 0647ms total)
T17AC 001:182 JLINK_WriteReg(R13 (SP), 0x20000800)  returns 0x00 (0000ms, 0647ms total)
T17AC 001:182 JLINK_WriteReg(R14, 0x20000001)  returns 0x00 (0000ms, 0647ms total)
T17AC 001:182 JLINK_WriteReg(R15 (PC), 0x200000F4)  returns 0x00 (0000ms, 0647ms total)
T17AC 001:182 JLINK_WriteReg(XPSR, 0x01000000)  returns 0x00 (0000ms, 0647ms total)
T17AC 001:182 JLINK_WriteReg(MSP, 0x20000800)  returns 0x00 (0000ms, 0647ms total)
T17AC 001:182 JLINK_WriteReg(PSP, 0x20000800)  returns 0x00 (0000ms, 0647ms total)
T17AC 001:182 JLINK_WriteReg(CFBP, 0x00000000)  returns 0x00 (0000ms, 0647ms total)
T17AC 001:182 JLINK_SetBPEx(Addr = 0x20000000, Type = 0xFFFFFFF2)  returns 0x0000000D (0000ms, 0647ms total)
T17AC 001:182 JLINK_Go() (0001ms, 0648ms total)
T17AC 001:183 JLINK_IsHalted()  returns FALSE (0001ms, 0649ms total)
T17AC 001:186 JLINK_IsHalted()  returns FALSE (0000ms, 0648ms total)
T17AC 001:191 JLINK_IsHalted()  returns FALSE (0000ms, 0648ms total)
T17AC 001:193 JLINK_IsHalted()  returns FALSE (0000ms, 0648ms total)
T17AC 001:195 JLINK_IsHalted()  returns FALSE (0000ms, 0648ms total)
T17AC 001:197 JLINK_IsHalted()  returns FALSE (0000ms, 0648ms total)
T17AC 001:199 JLINK_IsHalted()  returns FALSE (0000ms, 0648ms total)
T17AC 001:201 JLINK_IsHalted()  returns FALSE (0000ms, 0648ms total)
T17AC 001:206 JLINK_IsHalted()  returns FALSE (0000ms, 0648ms total)
T17AC 001:208 JLINK_IsHalted()  returns FALSE (0000ms, 0648ms total)
T17AC 001:210 JLINK_IsHalted()  returns FALSE (0000ms, 0648ms total)
T17AC 001:212 JLINK_IsHalted()  returns FALSE (0000ms, 0648ms total)
T17AC 001:214 JLINK_IsHalted()  returns FALSE (0000ms, 0648ms total)
T17AC 001:216 JLINK_IsHalted() -- CPU_ReadMem(2 bytes @ 0x20000000)  returns TRUE (0002ms, 0650ms total)
T17AC 001:218 JLINK_ReadReg(R15 (PC))  returns 0x20000000 (0000ms, 0648ms total)
T17AC 001:218 JLINK_ClrBPEx(BPHandle = 0x0000000D)  returns 0x00 (0000ms, 0648ms total)
T17AC 001:218 JLINK_ReadReg(R0)  returns 0x00000000 (0000ms, 0648ms total)
T17AC 001:219 JLINK_WriteMem(0x20000164, 0x0400 Bytes, ...) -- Data:  70 47 01 49 88 72 70 47 00 10 02 40 00 00 FF F8 ... -- CPU_WriteMem(1024 bytes @ 0x20000164)  returns 0x400 (0006ms, 0654ms total)
T17AC 001:225 JLINK_WriteReg(R0, 0x08001000)  returns 0x00 (0000ms, 0654ms total)
T17AC 001:225 JLINK_WriteReg(R1, 0x00000400)  returns 0x00 (0000ms, 0654ms total)
T17AC 001:225 JLINK_WriteReg(R2, 0x20000164)  returns 0x00 (0000ms, 0654ms total)
T17AC 001:225 JLINK_WriteReg(R3, 0x00000000)  returns 0x00 (0000ms, 0654ms total)
T17AC 001:225 JLINK_WriteReg(R4, 0x00000000)  returns 0x00 (0000ms, 0654ms total)
T17AC 001:225 JLINK_WriteReg(R5, 0x00000000)  returns 0x00 (0000ms, 0654ms total)
T17AC 001:225 JLINK_WriteReg(R6, 0x00000000)  returns 0x00 (0000ms, 0654ms total)
T17AC 001:225 JLINK_WriteReg(R7, 0x00000000)  returns 0x00 (0000ms, 0654ms total)
T17AC 001:225 JLINK_WriteReg(R8, 0x00000000)  returns 0x00 (0000ms, 0654ms total)
T17AC 001:225 JLINK_WriteReg(R9, 0x20000160)  returns 0x00 (0000ms, 0654ms total)
T17AC 001:225 JLINK_WriteReg(R10, 0x00000000)  returns 0x00 (0000ms, 0654ms total)
T17AC 001:225 JLINK_WriteReg(R11, 0x00000000)  returns 0x00 (0000ms, 0654ms total)
T17AC 001:226 JLINK_WriteReg(R12, 0x00000000)  returns 0x00 (0000ms, 0654ms total)
T17AC 001:226 JLINK_WriteReg(R13 (SP), 0x20000800)  returns 0x00 (0000ms, 0654ms total)
T17AC 001:226 JLINK_WriteReg(R14, 0x20000001)  returns 0x00 (0000ms, 0654ms total)
T17AC 001:226 JLINK_WriteReg(R15 (PC), 0x200000F4)  returns 0x00 (0000ms, 0654ms total)
T17AC 001:226 JLINK_WriteReg(XPSR, 0x01000000)  returns 0x00 (0000ms, 0654ms total)
T17AC 001:226 JLINK_WriteReg(MSP, 0x20000800)  returns 0x00 (0000ms, 0654ms total)
T17AC 001:226 JLINK_WriteReg(PSP, 0x20000800)  returns 0x00 (0000ms, 0654ms total)
T17AC 001:226 JLINK_WriteReg(CFBP, 0x00000000)  returns 0x00 (0000ms, 0654ms total)
T17AC 001:226 JLINK_SetBPEx(Addr = 0x20000000, Type = 0xFFFFFFF2)  returns 0x0000000E (0000ms, 0654ms total)
T17AC 001:226 JLINK_Go() (0001ms, 0655ms total)
T17AC 001:227 JLINK_IsHalted()  returns FALSE (0000ms, 0655ms total)
T17AC 001:236 JLINK_IsHalted()  returns FALSE (0000ms, 0655ms total)
T17AC 001:238 JLINK_IsHalted()  returns FALSE (0000ms, 0655ms total)
T17AC 001:240 JLINK_IsHalted()  returns FALSE (0000ms, 0655ms total)
T17AC 001:242 JLINK_IsHalted()  returns FALSE (0000ms, 0655ms total)
T17AC 001:244 JLINK_IsHalted()  returns FALSE (0000ms, 0655ms total)
T17AC 001:258 JLINK_IsHalted()  returns FALSE (0000ms, 0655ms total)
T17AC 001:260 JLINK_IsHalted() -- CPU_ReadMem(2 bytes @ 0x20000000)  returns TRUE (0002ms, 0657ms total)
T17AC 001:262 JLINK_ReadReg(R15 (PC))  returns 0x20000000 (0000ms, 0655ms total)
T17AC 001:262 JLINK_ClrBPEx(BPHandle = 0x0000000E)  returns 0x00 (0000ms, 0655ms total)
T17AC 001:262 JLINK_ReadReg(R0)  returns 0x00000000 (0000ms, 0655ms total)
T17AC 001:263 JLINK_WriteMem(0x20000164, 0x0400 Bytes, ...) -- Data:  10 B5 00 22 00 23 40 F6 6A 14 A1 42 00 D1 00 BF ... -- CPU_WriteMem(1024 bytes @ 0x20000164)  returns 0x400 (0007ms, 0662ms total)
T17AC 001:270 JLINK_WriteReg(R0, 0x08001400)  returns 0x00 (0000ms, 0662ms total)
T17AC 001:270 JLINK_WriteReg(R1, 0x00000194)  returns 0x00 (0000ms, 0662ms total)
T17AC 001:270 JLINK_WriteReg(R2, 0x20000164)  returns 0x00 (0000ms, 0662ms total)
T17AC 001:270 JLINK_WriteReg(R3, 0x00000000)  returns 0x00 (0000ms, 0662ms total)
T17AC 001:270 JLINK_WriteReg(R4, 0x00000000)  returns 0x00 (0000ms, 0662ms total)
T17AC 001:270 JLINK_WriteReg(R5, 0x00000000)  returns 0x00 (0000ms, 0662ms total)
T17AC 001:270 JLINK_WriteReg(R6, 0x00000000)  returns 0x00 (0000ms, 0662ms total)
T17AC 001:270 JLINK_WriteReg(R7, 0x00000000)  returns 0x00 (0000ms, 0662ms total)
T17AC 001:270 JLINK_WriteReg(R8, 0x00000000)  returns 0x00 (0000ms, 0662ms total)
T17AC 001:270 JLINK_WriteReg(R9, 0x20000160)  returns 0x00 (0000ms, 0662ms total)
T17AC 001:270 JLINK_WriteReg(R10, 0x00000000)  returns 0x00 (0000ms, 0662ms total)
T17AC 001:270 JLINK_WriteReg(R11, 0x00000000)  returns 0x00 (0000ms, 0662ms total)
T17AC 001:270 JLINK_WriteReg(R12, 0x00000000)  returns 0x00 (0000ms, 0662ms total)
T17AC 001:270 JLINK_WriteReg(R13 (SP), 0x20000800)  returns 0x00 (0000ms, 0662ms total)
T17AC 001:270 JLINK_WriteReg(R14, 0x20000001)  returns 0x00 (0000ms, 0662ms total)
T17AC 001:270 JLINK_WriteReg(R15 (PC), 0x200000F4)  returns 0x00 (0000ms, 0662ms total)
T17AC 001:270 JLINK_WriteReg(XPSR, 0x01000000)  returns 0x00 (0000ms, 0662ms total)
T17AC 001:270 JLINK_WriteReg(MSP, 0x20000800)  returns 0x00 (0000ms, 0662ms total)
T17AC 001:270 JLINK_WriteReg(PSP, 0x20000800)  returns 0x00 (0000ms, 0662ms total)
T17AC 001:270 JLINK_WriteReg(CFBP, 0x00000000)  returns 0x00 (0000ms, 0662ms total)
T17AC 001:270 JLINK_SetBPEx(Addr = 0x20000000, Type = 0xFFFFFFF2)  returns 0x0000000F (0000ms, 0662ms total)
T17AC 001:270 JLINK_Go() (0002ms, 0664ms total)
T17AC 001:272 JLINK_IsHalted()  returns FALSE (0000ms, 0664ms total)
T17AC 001:284 JLINK_IsHalted() -- CPU_ReadMem(2 bytes @ 0x20000000)  returns TRUE (0002ms, 0666ms total)
T17AC 001:286 JLINK_ReadReg(R15 (PC))  returns 0x20000000 (0000ms, 0664ms total)
T17AC 001:286 JLINK_ClrBPEx(BPHandle = 0x0000000F)  returns 0x00 (0000ms, 0664ms total)
T17AC 001:286 JLINK_ReadReg(R0)  returns 0x00000000 (0000ms, 0664ms total)
T17AC 001:286 JLINK_WriteReg(R0, 0x00000002)  returns 0x00 (0000ms, 0664ms total)
T17AC 001:286 JLINK_WriteReg(R1, 0x00000194)  returns 0x00 (0000ms, 0664ms total)
T17AC 001:287 JLINK_WriteReg(R2, 0x20000164)  returns 0x00 (0000ms, 0665ms total)
T17AC 001:287 JLINK_WriteReg(R3, 0x00000000)  returns 0x00 (0000ms, 0665ms total)
T17AC 001:287 JLINK_WriteReg(R4, 0x00000000)  returns 0x00 (0000ms, 0665ms total)
T17AC 001:287 JLINK_WriteReg(R5, 0x00000000)  returns 0x00 (0000ms, 0665ms total)
T17AC 001:287 JLINK_WriteReg(R6, 0x00000000)  returns 0x00 (0000ms, 0665ms total)
T17AC 001:287 JLINK_WriteReg(R7, 0x00000000)  returns 0x00 (0000ms, 0665ms total)
T17AC 001:287 JLINK_WriteReg(R8, 0x00000000)  returns 0x00 (0000ms, 0665ms total)
T17AC 001:287 JLINK_WriteReg(R9, 0x20000160)  returns 0x00 (0000ms, 0665ms total)
T17AC 001:287 JLINK_WriteReg(R10, 0x00000000)  returns 0x00 (0000ms, 0665ms total)
T17AC 001:287 JLINK_WriteReg(R11, 0x00000000)  returns 0x00 (0000ms, 0665ms total)
T17AC 001:287 JLINK_WriteReg(R12, 0x00000000)  returns 0x00 (0000ms, 0665ms total)
T17AC 001:287 JLINK_WriteReg(R13 (SP), 0x20000800)  returns 0x00 (0000ms, 0665ms total)
T17AC 001:287 JLINK_WriteReg(R14, 0x20000001)  returns 0x00 (0000ms, 0665ms total)
T17AC 001:287 JLINK_WriteReg(R15 (PC), 0x2000006A)  returns 0x00 (0000ms, 0665ms total)
T17AC 001:287 JLINK_WriteReg(XPSR, 0x01000000)  returns 0x00 (0000ms, 0665ms total)
T17AC 001:287 JLINK_WriteReg(MSP, 0x20000800)  returns 0x00 (0000ms, 0665ms total)
T17AC 001:287 JLINK_WriteReg(PSP, 0x20000800)  returns 0x00 (0000ms, 0665ms total)
T17AC 001:287 JLINK_WriteReg(CFBP, 0x00000000)  returns 0x00 (0000ms, 0665ms total)
T17AC 001:287 JLINK_SetBPEx(Addr = 0x20000000, Type = 0xFFFFFFF2)  returns 0x00000010 (0000ms, 0665ms total)
T17AC 001:287 JLINK_Go() (0001ms, 0666ms total)
T17AC 001:288 JLINK_IsHalted() -- CPU_ReadMem(2 bytes @ 0x20000000)  returns TRUE (0003ms, 0669ms total)
T17AC 001:291 JLINK_ReadReg(R15 (PC))  returns 0x20000000 (0000ms, 0666ms total)
T17AC 001:291 JLINK_ClrBPEx(BPHandle = 0x00000010)  returns 0x00 (0000ms, 0666ms total)
T17AC 001:291 JLINK_ReadReg(R0)  returns 0x00000000 (0000ms, 0666ms total)
T17AC 001:350 JLINK_WriteMem(0x20000000, 0x0164 Bytes, ...) -- Data:  00 BE 0A E0 0D 78 2D 06 68 40 08 24 40 00 00 D3 ... -- CPU_WriteMem(356 bytes @ 0x20000000)  returns 0x164 (0003ms, 0669ms total)
T17AC 001:353 JLINK_WriteReg(R0, 0x08000000)  returns 0x00 (0000ms, 0669ms total)
T17AC 001:353 JLINK_WriteReg(R1, 0x007A1200)  returns 0x00 (0000ms, 0669ms total)
T17AC 001:353 JLINK_WriteReg(R2, 0x00000003)  returns 0x00 (0000ms, 0669ms total)
T17AC 001:353 JLINK_WriteReg(R3, 0x00000000)  returns 0x00 (0000ms, 0669ms total)
T17AC 001:353 JLINK_WriteReg(R4, 0x00000000)  returns 0x00 (0000ms, 0669ms total)
T17AC 001:353 JLINK_WriteReg(R5, 0x00000000)  returns 0x00 (0000ms, 0669ms total)
T17AC 001:353 JLINK_WriteReg(R6, 0x00000000)  returns 0x00 (0001ms, 0670ms total)
T17AC 001:354 JLINK_WriteReg(R7, 0x00000000)  returns 0x00 (0000ms, 0670ms total)
T17AC 001:354 JLINK_WriteReg(R8, 0x00000000)  returns 0x00 (0000ms, 0670ms total)
T17AC 001:354 JLINK_WriteReg(R9, 0x20000160)  returns 0x00 (0000ms, 0670ms total)
T17AC 001:354 JLINK_WriteReg(R10, 0x00000000)  returns 0x00 (0000ms, 0670ms total)
T17AC 001:354 JLINK_WriteReg(R11, 0x00000000)  returns 0x00 (0000ms, 0670ms total)
T17AC 001:354 JLINK_WriteReg(R12, 0x00000000)  returns 0x00 (0000ms, 0670ms total)
T17AC 001:354 JLINK_WriteReg(R13 (SP), 0x20000800)  returns 0x00 (0000ms, 0670ms total)
T17AC 001:354 JLINK_WriteReg(R14, 0x20000001)  returns 0x00 (0000ms, 0670ms total)
T17AC 001:354 JLINK_WriteReg(R15 (PC), 0x20000038)  returns 0x00 (0000ms, 0670ms total)
T17AC 001:354 JLINK_WriteReg(XPSR, 0x01000000)  returns 0x00 (0000ms, 0670ms total)
T17AC 001:355 JLINK_WriteReg(MSP, 0x20000800)  returns 0x00 (0000ms, 0671ms total)
T17AC 001:355 JLINK_WriteReg(PSP, 0x20000800)  returns 0x00 (0000ms, 0671ms total)
T17AC 001:355 JLINK_WriteReg(CFBP, 0x00000000)  returns 0x00 (0000ms, 0671ms total)
T17AC 001:355 JLINK_SetBPEx(Addr = 0x20000000, Type = 0xFFFFFFF2) -- CPU_ReadMem(2 bytes @ 0x20000000)  returns 0x00000011 (0000ms, 0671ms total)
T17AC 001:355 JLINK_Go() -- CPU_WriteMem(2 bytes @ 0x20000000) (0002ms, 0673ms total)
T17AC 001:357 JLINK_IsHalted() -- CPU_ReadMem(2 bytes @ 0x20000000)  returns TRUE (0003ms, 0676ms total)
T17AC 001:360 JLINK_ReadReg(R15 (PC))  returns 0x20000000 (0000ms, 0673ms total)
T17AC 001:360 JLINK_ClrBPEx(BPHandle = 0x00000011)  returns 0x00 (0000ms, 0673ms total)
T17AC 001:360 JLINK_ReadReg(R0)  returns 0x00000000 (0001ms, 0674ms total)
T17AC 001:361 JLINK_WriteReg(R0, 0xFFFFFFFF)  returns 0x00 (0000ms, 0674ms total)
T17AC 001:361 JLINK_WriteReg(R1, 0x08000000)  returns 0x00 (0000ms, 0674ms total)
T17AC 001:361 JLINK_WriteReg(R2, 0x00001594)  returns 0x00 (0000ms, 0674ms total)
T17AC 001:361 JLINK_WriteReg(R3, 0x04C11DB7)  returns 0x00 (0000ms, 0674ms total)
T17AC 001:361 JLINK_WriteReg(R4, 0x00000000)  returns 0x00 (0000ms, 0674ms total)
T17AC 001:361 JLINK_WriteReg(R5, 0x00000000)  returns 0x00 (0000ms, 0674ms total)
T17AC 001:361 JLINK_WriteReg(R6, 0x00000000)  returns 0x00 (0000ms, 0674ms total)
T17AC 001:361 JLINK_WriteReg(R7, 0x00000000)  returns 0x00 (0000ms, 0674ms total)
T17AC 001:361 JLINK_WriteReg(R8, 0x00000000)  returns 0x00 (0000ms, 0674ms total)
T17AC 001:361 JLINK_WriteReg(R9, 0x20000160)  returns 0x00 (0000ms, 0674ms total)
